Sample in Buffer,Sample in Window,TRIGGER,axis_rx_tdata_1[511:0],axis_rx_tvalid_1,axis_rx_tuser_1,axis_rx_tkeep_1[63:0],axis_rx_tlast_1,axis_tx_tdata_1[511:0],axis_tx_tvalid_1,axis_tx_tkeep_1[63:0],axis_tx_tlast_1,axis_tx_tready_1,lbus_reset,lbus1_tx_ovfout,lbus1_tx_unfout,RefClkLocked,Reset,qsfp1_intl_ls_IBUF
0,0,0,000000000000000000000000000000000000000000000000000000000000001e000000000000001e000000000000001e00000000000000002e7f777000000000,0,0,0000000000000000,0,00000000000000000000000000000000000000000000000000000000000000000000000000000000000000000000000000000000000000000000000000000000,0,0000000000000000,0,1,0,0,0,1,0,0
1,1,0,000000000000000000000000000000000000000000000000000000000000001e000000000000001e000000000000001e00000000000000002e7f777000000000,0,0,0000000000000000,0,00000000000000000000000000000000000000000000000000000000000000000000000000000000000000000000000000000000000000000000000000000000,0,0000000000000000,0,1,0,0,0,1,0,0
2,2,0,000000000000000000000000000000000000000000000000000000000000001e000000000000001e000000000000001e00000000000000002e7f777000000000,0,0,0000000000000000,0,00000000000000000000000000000000000000000000000000000000000000000000000000000000000000000000000000000000000000000000000000000000,0,0000000000000000,0,1,0,0,0,1,0,0
3,3,0,000000000000000000000000000000000000000000000000000000000000001e000000000000001e000000000000001e00000000000000002e7f777000000000,0,0,0000000000000000,0,00000000000000000000000000000000000000000000000000000000000000000000000000000000000000000000000000000000000000000000000000000000,0,0000000000000000,0,1,0,0,0,1,0,0
4,4,1,000000000000000000000000000000000000000000000000114000404b90620000450008c6de9c9a114000404b90620000450008c6de9c9a0dec924102350a00,0,0,0000000000000000,0,00000000000000000000000000000000000000000000000000000000000000000000000000000000000000000000000000000000000000000000000000000000,0,0000000000000000,0,1,0,0,0,1,0,0
5,5,0,2120212021202120212021202120212021202120212019034e001027ddda0a0aa8c0690aa8c07c14114000404b90620000450008c6de9c9a0dec924102350a00,1,0,ffffffffffffffff,0,00000000000000000000000000000000000000000000000000000000000000000000000000000000000000000000000000000000000000000000000000000000,0,0000000000000000,0,1,0,0,0,1,0,0
6,6,0,00000000000000000000000000000000000000000000000021202120212021202120212021202120212021202120212021202120212021202120212021202120,0,0,0000000000000000,0,00000000000000000000000000000000000000000000000000000000000000000000000000000000000000000000000000000000000000000000000000000000,0,0000000000000000,0,1,0,0,0,1,0,0
7,7,0,000000000000001e00000000be05536b212021202120212021202120212021202120212021202120212021202120212021202120212021202120212021202120,1,0,0000ffffffffffff,1,00000000000000000000000000000000000000000000000000000000000000000000000000000000000000000000000000000000000000000000000000000000,0,0000000000000000,0,1,0,0,0,1,0,0
8,8,0,000000000000000000000000000000000000000000000000000000000000001e000000000000001e000000000000001e00000000be05536b2120212021202120,0,0,0000000000000000,0,00000000000000000000000000000000000000000000000000000000000000000000000000000000000000000000000000000000000000000000000000000000,0,0000000000000000,0,1,0,0,0,1,0,0
9,9,0,000000000000000000000000000000000000000000000000000000000000001e000000000000001e000000000000001e00000000be05536b2120212021202120,0,0,0000000000000000,0,00000000000000000000000000000000000000000000000000000000000000000000000000000000000000000000000000000000000000000000000000000000,0,0000000000000000,0,1,0,0,0,1,0,0
10,10,0,000000000000000000000000000000000000000000000000000000000000001e000000000000001e000000000000001e00000000be05536b2120212021202120,0,0,0000000000000000,0,00000000000000000000000000000000000000000000000000000000000000000000000000000000000000000000000000000000000000000000000000000000,0,0000000000000000,0,1,0,0,0,1,0,0
11,11,0,000000000000000000000000000000000000000000000000000000000000001e000000000000001e000000000000001e00000000be05536b2120212021202120,0,0,0000000000000000,0,00000000000000000000000000000000000000000000000000000000000000000000000000000000000000000000000000000000000000000000000000000000,0,0000000000000000,0,1,0,0,0,1,0,0
12,12,0,000000000000000000000000000000000000000000000000000000000000001e000000000000001e000000000000001e00000000be05536b2120212021202120,0,0,0000000000000000,0,00000000000000000000000000000000000000000000000000000000000000000000000000000000000000000000000000000000000000000000000000000000,0,0000000000000000,0,1,0,0,0,1,0,0
13,13,0,000000000000000000000000000000000000000000000000000000000000001e000000000000001e000000000000001e00000000be05536b2120212021202120,0,0,0000000000000000,0,00000000000000000000000000000000000000000000000000000000000000000000000000000000000000000000000000000000000000000000000000000000,0,0000000000000000,0,1,0,0,0,1,0,0
14,14,0,000000000000000000000000000000000000000000000000000000000000001e000000000000001e000000000000001e00000000be05536b2120212021202120,0,0,0000000000000000,0,00000000000000000000000000000000000000000000000000000000000000000000000000000000000000000000000000000000000000000000000000000000,0,0000000000000000,0,1,0,0,0,1,0,0
15,15,0,000000000000000000000000000000000000000000000000000000000000001e000000000000001e000000000000001e00000000be05536b2120212021202120,0,0,0000000000000000,0,00000000000000000000000000000000000000000000000000000000000000000000000000000000000000000000000000000000000000000000000000000000,0,0000000000000000,0,1,0,0,0,1,0,0
16,16,0,000000000000000000000000000000000000000000000000000000000000001e000000000000001e000000000000001e00000000be05536b2120212021202120,0,0,0000000000000000,0,00000000000000000000000000000000000000000000000000000000000000000000000000000000000000000000000000000000000000000000000000000000,0,0000000000000000,0,1,0,0,0,1,0,0
17,17,0,000000000000000000000000000000000000000000000000000000000000001e000000000000001e000000000000001e00000000be05536b2120212021202120,0,0,0000000000000000,0,00000000000000000000000000000000000000000000000000000000000000000000000000000000000000000000000000000000000000000000000000000000,0,0000000000000000,0,1,0,0,0,1,0,0
18,18,0,000000000000000000000000000000000000000000000000000000000000001e000000000000001e000000000000001e00000000be05536b2120212021202120,0,0,0000000000000000,0,00000000000000000000000000000000000000000000000000000000000000000000000000000000000000000000000000000000000000000000000000000000,0,0000000000000000,0,1,0,0,0,1,0,0
19,19,0,000000000000000000000000000000000000000000000000000000000000001e000000000000001e000000000000001e00000000be05536b2120212021202120,0,0,0000000000000000,0,00000000000000000000000000000000000000000000000000000000000000000000000000000000000000000000000000000000000000000000000000000000,0,0000000000000000,0,1,0,0,0,1,0,0
20,20,0,000000000000000000000000000000000000000000000000000000000000001e000000000000001e000000000000001e00000000be05536b2120212021202120,0,0,0000000000000000,0,00000000000000000000000000000000000000000000000000000000000000000000000000000000000000000000000000000000000000000000000000000000,0,0000000000000000,0,1,0,0,0,1,0,0
21,21,0,000000000000000000000000000000000000000000000000000000000000001e000000000000001e000000000000001e00000000be05536b2120212021202120,0,0,0000000000000000,0,2120212021202120212021202120212021202120212019034e00ddda1027690aa8c00a0aa8c07c14114000404b90620000450008924102350a00c6de9c9a0dec,0,ffffffffffffffff,0,1,0,0,0,1,0,0
22,22,0,000000000000000000000000000000000000000000000000000000000000001e000000000000001e000000000000001e00000000be05536b2120212021202120,0,0,0000000000000000,0,2120212021202120212021202120212021202120212019034e00ddda1027690aa8c00a0aa8c07c14114000404b90620000450008924102350a00c6de9c9a0dec,1,ffffffffffffffff,0,1,0,0,0,1,0,0
23,23,0,000000000000000000000000000000000000000000000000000000000000001e000000000000001e000000000000001e00000000be05536b2120212021202120,0,0,0000000000000000,0,00000000000000000000000000000000000000000000000021202120212021202120212021202120212021202120212021202120212021202120212021202120,1,0000000000000001,0,1,0,0,0,1,0,0
24,24,0,000000000000000000000000000000000000000000000000000000000000001e000000000000001e000000000000001e00000000be05536b2120212021202120,0,0,0000000000000000,0,000000000000001e00000000be05536b212021202120212021202120212021202120212021202120212021202120212021202120212021202120212021202120,1,0000ffffffffffff,1,1,0,0,0,1,0,0
25,25,0,000000000000000000000000000000000000000000000000000000000000001e000000000000001e000000000000001e00000000be05536b2120212021202120,0,0,0000000000000000,0,00000000000000000000000000000000000000000000000000000000000000000000000000000000000000000000000000000000000000000000000000000000,0,0000000000000000,0,1,0,0,0,1,0,0
26,26,0,000000000000000000000000000000000000000000000000000000000000001e000000000000001e000000000000001e00000000be05536b2120212021202120,0,0,0000000000000000,0,00000000000000000000000000000000000000000000000000000000000000000000000000000000000000000000000000000000000000000000000000000000,0,0000000000000000,0,1,0,0,0,1,0,0
27,27,0,000000000000000000000000000000000000000000000000000000000000001e000000000000001e000000000000001e00000000be05536b2120212021202120,0,0,0000000000000000,0,00000000000000000000000000000000000000000000000000000000000000000000000000000000000000000000000000000000000000000000000000000000,0,0000000000000000,0,1,0,0,0,1,0,0
28,28,0,000000000000000000000000000000000000000000000000000000000000001e000000000000001e000000000000001e00000000be05536b2120212021202120,0,0,0000000000000000,0,00000000000000000000000000000000000000000000000000000000000000000000000000000000000000000000000000000000000000000000000000000000,0,0000000000000000,0,1,0,0,0,1,0,0
29,29,0,000000000000000000000000000000000000000000000000000000000000001e000000000000001e000000000000001e00000000be05536b2120212021202120,0,0,0000000000000000,0,00000000000000000000000000000000000000000000000000000000000000000000000000000000000000000000000000000000000000000000000000000000,0,0000000000000000,0,1,0,0,0,1,0,0
30,30,0,000000000000000000000000000000000000000000000000000000000000001e000000000000001e000000000000001e00000000be05536b2120212021202120,0,0,0000000000000000,0,00000000000000000000000000000000000000000000000000000000000000000000000000000000000000000000000000000000000000000000000000000000,0,0000000000000000,0,1,0,0,0,1,0,0
31,31,0,000000000000000000000000000000000000000000000000000000000000001e000000000000001e000000000000001e00000000be05536b2120212021202120,0,0,0000000000000000,0,00000000000000000000000000000000000000000000000000000000000000000000000000000000000000000000000000000000000000000000000000000000,0,0000000000000000,0,1,0,0,0,1,0,0
32,32,0,000000000000000000000000000000000000000000000000000000000000001e000000000000001e000000000000001e00000000be05536b2120212021202120,0,0,0000000000000000,0,00000000000000000000000000000000000000000000000000000000000000000000000000000000000000000000000000000000000000000000000000000000,0,0000000000000000,0,1,0,0,0,1,0,0
33,33,0,000000000000000000000000000000000000000000000000000000000000001e000000000000001e000000000000001e00000000be05536b2120212021202120,0,0,0000000000000000,0,00000000000000000000000000000000000000000000000000000000000000000000000000000000000000000000000000000000000000000000000000000000,0,0000000000000000,0,1,0,0,0,1,0,0
34,34,0,000000000000000000000000000000000000000000000000000000000000001e000000000000001e000000000000001e00000000be05536b2120212021202120,0,0,0000000000000000,0,00000000000000000000000000000000000000000000000000000000000000000000000000000000000000000000000000000000000000000000000000000000,0,0000000000000000,0,1,0,0,0,1,0,0
35,35,0,000000000000000000000000000000000000000000000000000000000000001e000000000000001e000000000000001e00000000be05536b2120212021202120,0,0,0000000000000000,0,00000000000000000000000000000000000000000000000000000000000000000000000000000000000000000000000000000000000000000000000000000000,0,0000000000000000,0,1,0,0,0,1,0,0
36,36,0,000000000000000000000000000000000000000000000000000000000000001e000000000000001e000000000000001e00000000be05536b2120212021202120,0,0,0000000000000000,0,00000000000000000000000000000000000000000000000000000000000000000000000000000000000000000000000000000000000000000000000000000000,0,0000000000000000,0,1,0,0,0,1,0,0
37,37,0,000000000000000000000000000000000000000000000000000000000000001e000000000000001e000000000000001e00000000be05536b2120212021202120,0,0,0000000000000000,0,00000000000000000000000000000000000000000000000000000000000000000000000000000000000000000000000000000000000000000000000000000000,0,0000000000000000,0,1,0,0,0,1,0,0
38,38,0,000000000000000000000000000000000000000000000000000000000000001e000000000000001e000000000000001e00000000be05536b2120212021202120,0,0,0000000000000000,0,00000000000000000000000000000000000000000000000000000000000000000000000000000000000000000000000000000000000000000000000000000000,0,0000000000000000,0,1,0,0,0,1,0,0
39,39,0,000000000000000000000000000000000000000000000000000000000000001e000000000000001e000000000000001e00000000be05536b2120212021202120,0,0,0000000000000000,0,00000000000000000000000000000000000000000000000000000000000000000000000000000000000000000000000000000000000000000000000000000000,0,0000000000000000,0,1,0,0,0,1,0,0
40,40,0,000000000000000000000000000000000000000000000000000000000000001e000000000000001e000000000000001e00000000be05536b2120212021202120,0,0,0000000000000000,0,00000000000000000000000000000000000000000000000000000000000000000000000000000000000000000000000000000000000000000000000000000000,0,0000000000000000,0,1,0,0,0,1,0,0
41,41,0,000000000000000000000000000000000000000000000000000000000000001e000000000000001e000000000000001e00000000be05536b2120212021202120,0,0,0000000000000000,0,00000000000000000000000000000000000000000000000000000000000000000000000000000000000000000000000000000000000000000000000000000000,0,0000000000000000,0,1,0,0,0,1,0,0
42,42,0,000000000000000000000000000000000000000000000000000000000000001e000000000000001e000000000000001e00000000be05536b2120212021202120,0,0,0000000000000000,0,00000000000000000000000000000000000000000000000000000000000000000000000000000000000000000000000000000000000000000000000000000000,0,0000000000000000,0,1,0,0,0,1,0,0
43,43,0,000000000000000000000000000000000000000000000000000000000000001e000000000000001e000000000000001e00000000be05536b2120212021202120,0,0,0000000000000000,0,00000000000000000000000000000000000000000000000000000000000000000000000000000000000000000000000000000000000000000000000000000000,0,0000000000000000,0,1,0,0,0,1,0,0
44,44,0,000000000000000000000000000000000000000000000000000000000000001e000000000000001e000000000000001e00000000be05536b2120212021202120,0,0,0000000000000000,0,00000000000000000000000000000000000000000000000000000000000000000000000000000000000000000000000000000000000000000000000000000000,0,0000000000000000,0,1,0,0,0,1,0,0
45,45,0,000000000000000000000000000000000000000000000000000000000000001e000000000000001e000000000000001e00000000be05536b2120212021202120,0,0,0000000000000000,0,00000000000000000000000000000000000000000000000000000000000000000000000000000000000000000000000000000000000000000000000000000000,0,0000000000000000,0,1,0,0,0,1,0,0
46,46,0,000000000000000000000000000000000000000000000000000000000000001e000000000000001e000000000000001e00000000be05536b2120212021202120,0,0,0000000000000000,0,00000000000000000000000000000000000000000000000000000000000000000000000000000000000000000000000000000000000000000000000000000000,0,0000000000000000,0,1,0,0,0,1,0,0
47,47,0,000000000000000000000000000000000000000000000000000000000000001e000000000000001e000000000000001e00000000be05536b2120212021202120,0,0,0000000000000000,0,00000000000000000000000000000000000000000000000000000000000000000000000000000000000000000000000000000000000000000000000000000000,0,0000000000000000,0,1,0,0,0,1,0,0
48,48,0,000000000000000000000000000000000000000000000000000000000000001e000000000000001e000000000000001e00000000be05536b2120212021202120,0,0,0000000000000000,0,00000000000000000000000000000000000000000000000000000000000000000000000000000000000000000000000000000000000000000000000000000000,0,0000000000000000,0,1,0,0,0,1,0,0
49,49,0,000000000000000000000000000000000000000000000000000000000000001e000000000000001e000000000000001e00000000be05536b2120212021202120,0,0,0000000000000000,0,00000000000000000000000000000000000000000000000000000000000000000000000000000000000000000000000000000000000000000000000000000000,0,0000000000000000,0,1,0,0,0,1,0,0
50,50,0,000000000000000000000000000000000000000000000000000000000000001e000000000000001e000000000000001e00000000be05536b2120212021202120,0,0,0000000000000000,0,00000000000000000000000000000000000000000000000000000000000000000000000000000000000000000000000000000000000000000000000000000000,0,0000000000000000,0,1,0,0,0,1,0,0
51,51,0,000000000000000000000000000000000000000000000000000000000000001e000000000000001e000000000000001e00000000be05536b2120212021202120,0,0,0000000000000000,0,00000000000000000000000000000000000000000000000000000000000000000000000000000000000000000000000000000000000000000000000000000000,0,0000000000000000,0,1,0,0,0,1,0,0
52,52,0,000000000000000000000000000000000000000000000000000000000000001e000000000000001e000000000000001e00000000be05536b2120212021202120,0,0,0000000000000000,0,00000000000000000000000000000000000000000000000000000000000000000000000000000000000000000000000000000000000000000000000000000000,0,0000000000000000,0,1,0,0,0,1,0,0
53,53,0,000000000000000000000000000000000000000000000000000000000000001e000000000000001e000000000000001e00000000be05536b2120212021202120,0,0,0000000000000000,0,00000000000000000000000000000000000000000000000000000000000000000000000000000000000000000000000000000000000000000000000000000000,0,0000000000000000,0,1,0,0,0,1,0,0
54,54,0,000000000000000000000000000000000000000000000000000000000000001e000000000000001e000000000000001e00000000be05536b2120212021202120,0,0,0000000000000000,0,00000000000000000000000000000000000000000000000000000000000000000000000000000000000000000000000000000000000000000000000000000000,0,0000000000000000,0,1,0,0,0,1,0,0
55,55,0,000000000000000000000000000000000000000000000000000000000000001e000000000000001e000000000000001e00000000be05536b2120212021202120,0,0,0000000000000000,0,00000000000000000000000000000000000000000000000000000000000000000000000000000000000000000000000000000000000000000000000000000000,0,0000000000000000,0,1,0,0,0,1,0,0
56,56,0,000000000000000000000000000000000000000000000000000000000000001e000000000000001e000000000000001e00000000be05536b2120212021202120,0,0,0000000000000000,0,00000000000000000000000000000000000000000000000000000000000000000000000000000000000000000000000000000000000000000000000000000000,0,0000000000000000,0,1,0,0,0,1,0,0
57,57,0,000000000000000000000000000000000000000000000000000000000000001e000000000000001e000000000000001e00000000be05536b2120212021202120,0,0,0000000000000000,0,00000000000000000000000000000000000000000000000000000000000000000000000000000000000000000000000000000000000000000000000000000000,0,0000000000000000,0,1,0,0,0,1,0,0
58,58,0,000000000000000000000000000000000000000000000000000000000000001e000000000000001e000000000000001e00000000be05536b2120212021202120,0,0,0000000000000000,0,00000000000000000000000000000000000000000000000000000000000000000000000000000000000000000000000000000000000000000000000000000000,0,0000000000000000,0,1,0,0,0,1,0,0
59,59,0,000000000000000000000000000000000000000000000000000000000000001e000000000000001e000000000000001e00000000be05536b2120212021202120,0,0,0000000000000000,0,00000000000000000000000000000000000000000000000000000000000000000000000000000000000000000000000000000000000000000000000000000000,0,0000000000000000,0,1,0,0,0,1,0,0
