Sample in Buffer,Sample in Window,TRIGGER,axis_rx_tdata_1[511:0],axis_rx_tvalid_1,axis_rx_tuser_1,axis_rx_tkeep_1[63:0],axis_rx_tlast_1,axis_tx_tdata_1[511:0],axis_tx_tvalid_1,axis_tx_tkeep_1[63:0],axis_tx_tlast_1,axis_tx_tready_1,lbus_reset,lbus1_tx_ovfout,lbus1_tx_unfout,RefClkLocked,Reset,qsfp1_intl_ls_IBUF
0,0,0,000000000000000000000000000000000000000000000000000000000000001e0000000000000000989c8e610000000000000000000f0002001400000980c0f3,0,0,0000000000000000,0,00000000000000000000000000000000000000000000000000000000000000000000000000000000000000000000000000000000000000000000000000000000,0,0000000000000000,0,1,0,0,0,1,0,1
1,1,0,000000000000000000000000000000000000000000000000000000000000001e0000000000000000989c8e610000000000000000000f0002001400000980c0f3,0,0,0000000000000000,0,00000000000000000000000000000000000000000000000000000000000000000000000000000000000000000000000000000000000000000000000000000000,0,0000000000000000,0,1,0,0,0,1,0,1
2,2,0,000000000000000000000000000000000000000000000000000000000000001e0000000000000000989c8e610000000000000000000f0002001400000980c0f3,0,0,0000000000000000,0,00000000000000000000000000000000000000000000000000000000000000000000000000000000000000000000000000000000000000000000000000000000,0,0000000000000000,0,1,0,0,0,1,0,1
3,3,0,000000000000000000000000000000000000000000000000000000000000001e0000000000000000989c8e610000000000000000000f0002001400000980c0f3,0,0,0000000000000000,0,00000000000000000000000000000000000000000000000000000000000000000000000000000000000000000000000000000000000000000000000000000000,0,0000000000000000,0,1,0,0,0,1,0,1
4,4,0,000000000000000000000000000000000000000000000000000000000000001e0000000000000000989c8e610000000000000000000f0002001400000980c0f3,0,0,0000000000000000,0,00000000000000000000000000000000000000000000000000000000000000000000000000000000000000000000000000000000000000000000000000000000,0,0000000000000000,0,1,0,0,0,1,0,1
5,5,0,000000000000000000000000000000000000000000000000000000000000001e0000000000000000989c8e610000000000000000000f0002001400000980c0f3,0,0,0000000000000000,0,00000000000000000000000000000000000000000000000000000000000000000000000000000000000000000000000000000000000000000000000000000000,0,0000000000000000,0,1,0,0,0,1,0,1
6,6,0,000000000000000000000000000000000000000000000000000000000000001e0000000000000000989c8e610000000000000000000f0002001400000980c0f3,0,0,0000000000000000,0,00000000000000000000000000000000000000000000000000000000000000000000000000000000000000000000000000000000000000000000000000000000,0,0000000000000000,0,1,0,0,0,1,0,1
7,7,0,000000000000000000000000000000000000000000000000000000000000001e0000000000000000989c8e610000000000000000000f0002001400000980c0f3,0,0,0000000000000000,0,00000000000000000000000000000000000000000000000000000000000000000000000000000000000000000000000000000000000000000000000000000000,0,0000000000000000,0,1,0,0,0,1,0,1
8,8,0,000000000000000000000000000000000000000000000000000000000000001e0000000000000000989c8e610000000000000000000f0002001400000980c0f3,0,0,0000000000000000,0,00000000000000000000000000000000000000000000000000000000000000000000000000000000000000000000000000000000000000000000000000000000,0,0000000000000000,0,1,0,0,0,1,0,1
9,9,0,000000000000000000000000000000000000000000000000000000000000001e0000000000000000989c8e610000000000000000000f0002001400000980c0f3,0,0,0000000000000000,0,00000000000000000000000000000000000000000000000000000000000000000000000000000000000000000000000000000000000000000000000000000000,0,0000000000000000,0,1,0,0,0,1,0,1
10,10,0,000000000000000000000000000000000000000000000000000000000000001e0000000000000000989c8e610000000000000000000f0002001400000980c0f3,0,0,0000000000000000,0,00000000000000000000000000000000000000000000000000000000000000000000000000000000000000000000000000000000000000000000000000000000,0,0000000000000000,0,1,0,0,0,1,0,1
11,11,0,000000000000000000000000000000000000000000000000000000000000001e0000000000000000989c8e610000000000000000000f0002001400000980c0f3,0,0,0000000000000000,0,00000000000000000000000000000000000000000000000000000000000000000000000000000000000000000000000000000000000000000000000000000000,0,0000000000000000,0,1,0,0,0,1,0,1
12,12,0,000000000000000000000000000000000000000000000000000000000000001e0000000000000000989c8e610000000000000000000f0002001400000980c0f3,0,0,0000000000000000,0,00000000000000000000000000000000000000000000000000000000000000000000000000000000000000000000000000000000000000000000000000000000,0,0000000000000000,0,1,0,0,0,1,0,1
13,13,0,000000000000000000000000000000000000000000000000000000000000001e0000000000000000989c8e610000000000000000000f0002001400000980c0f3,0,0,0000000000000000,0,00000000000000000000000000000000000000000000000000000000000000000000000000000000000000000000000000000000000000000000000000000000,0,0000000000000000,0,1,0,0,0,1,0,1
14,14,0,000000000000000000000000000000000000000000000000000000000000001e0000000000000000989c8e610000000000000000000f0002001400000980c0f3,0,0,0000000000000000,0,00000000000000000000000000000000000000000000000000000000000000000000000000000000000000000000000000000000000000000000000000000000,0,0000000000000000,0,1,0,0,0,1,0,1
15,15,0,000000000000000000000000000000000000000000000000000000000000001e0000000000000000989c8e610000000000000000000f0002001400000980c0f3,0,0,0000000000000000,0,00000000000000000000000000000000000000000000000000000000000000000000000000000000000000000000000000000000000000000000000000000000,0,0000000000000000,0,1,0,0,0,1,0,1
16,16,0,000000000000000000000000000000000000000000000000000000000000001e0000000000000000989c8e610000000000000000000f0002001400000980c0f3,0,0,0000000000000000,0,00000000000000000000000000000000000000000000000000000000000000000000000000000000000000000000000000000000000000000000000000000000,0,0000000000000000,0,1,0,0,0,1,0,1
17,17,0,000000000000000000000000000000000000000000000000000000000000001e0000000000000000989c8e610000000000000000000f0002001400000980c0f3,0,0,0000000000000000,0,00000000000000000000000000000000000000000000000000000000000000000000000000000000000000000000000000000000000000000000000000000000,0,0000000000000000,0,1,0,0,0,1,0,1
18,18,0,000000000000000000000000000000000000000000000000000000000000001e0000000000000000989c8e610000000000000000000f0002001400000980c0f3,0,0,0000000000000000,0,00000000000000000000000000000000000000000000000000000000000000000000000000000000000000000000000000000000000000000000000000000000,0,0000000000000000,0,1,0,0,0,1,0,1
19,19,0,000000000000000000000000000000000000000000000000000000000000001e0000000000000000989c8e610000000000000000000f0002001400000980c0f3,0,0,0000000000000000,0,00000000000000000000000000000000000000000000000000000000000000000000000000000000000000000000000000000000000000000000000000000000,0,0000000000000000,0,1,0,0,0,1,0,1
20,20,0,000000000000000000000000000000000000000000000000000000000000001e0000000000000000989c8e610000000000000000000f0002001400000980c0f3,0,0,0000000000000000,0,00000000000000000000000000000000000000000000000000000000000000000000000000000000000000000000000000000000000000000000000000000000,0,0000000000000000,0,1,0,0,0,1,0,1
21,21,0,000000000000000000000000000000000000000000000000000000000000001e0000000000000000989c8e610000000000000000000f0002001400000980c0f3,0,0,0000000000000000,0,00000000000000000000000000000000000000000000000000000000000000000000000000000000000000000000000000000000000000000000000000000000,0,0000000000000000,0,1,0,0,0,1,0,1
22,22,0,000000000000000000000000000000000000000000000000000000000000001e0000000000000000989c8e610000000000000000000f0002001400000980c0f3,0,0,0000000000000000,0,00000000000000000000000000000000000000000000000000000000000000000000000000000000000000000000000000000000000000000000000000000000,0,0000000000000000,0,1,0,0,0,1,0,1
23,23,0,000000000000000000000000000000000000000000000000000000000000001e0000000000000000989c8e610000000000000000000f0002001400000980c0f3,0,0,0000000000000000,0,00000000000000000000000000000000000000000000000000000000000000000000000000000000000000000000000000000000000000000000000000000000,0,0000000000000000,0,1,0,0,0,1,0,1
24,24,0,000000000000000000000000000000000000000000000000000000000000001e0000000000000000989c8e610000000000000000000f0002001400000980c0f3,0,0,0000000000000000,0,00000000000000000000000000000000000000000000000000000000000000000000000000000000000000000000000000000000000000000000000000000000,0,0000000000000000,0,1,0,0,0,1,0,1
25,25,0,000000000000000000000000000000000000000000000000000000000000001e0000000000000000989c8e610000000000000000000f0002001400000980c0f3,0,0,0000000000000000,0,00000000000000000000000000000000000000000000000000000000000000000000000000000000000000000000000000000000000000000000000000000000,0,0000000000000000,0,1,0,0,0,1,0,1
26,26,0,000000000000000000000000000000000000000000000000000000000000001e0000000000000000989c8e610000000000000000000f0002001400000980c0f3,0,0,0000000000000000,0,00000000000000000000000000000000000000000000000000000000000000000000000000000000000000000000000000000000000000000000000000000000,0,0000000000000000,0,1,0,0,0,1,0,1
27,27,0,000000000000000000000000000000000000000000000000000000000000001e0000000000000000989c8e610000000000000000000f0002001400000980c0f3,0,0,0000000000000000,0,00000000000000000000000000000000000000000000000000000000000000000000000000000000000000000000000000000000000000000000000000000000,0,0000000000000000,0,1,0,0,0,1,0,1
28,28,0,000000000000000000000000000000000000000000000000000000000000001e0000000000000000989c8e610000000000000000000f0002001400000980c0f3,0,0,0000000000000000,0,00000000000000000000000000000000000000000000000000000000000000000000000000000000000000000000000000000000000000000000000000000000,0,0000000000000000,0,1,0,0,0,1,0,1
29,29,0,000000000000000000000000000000000000000000000000000000000000001e0000000000000000989c8e610000000000000000000f0002001400000980c0f3,0,0,0000000000000000,0,00000000000000000000000000000000000000000000000000000000000000000000000000000000000000000000000000000000000000000000000000000000,0,0000000000000000,0,1,0,0,0,1,0,1
30,30,0,000000000000000000000000000000000000000000000000000000000000001e0000000000000000989c8e610000000000000000000f0002001400000980c0f3,0,0,0000000000000000,0,00000000000000000000000000000000000000000000000000000000000000000000000000000000000000000000000000000000000000000000000000000000,0,0000000000000000,0,1,0,0,0,1,0,1
31,31,0,000000000000000000000000000000000000000000000000000000000000001e0000000000000000989c8e610000000000000000000f0002001400000980c0f3,0,0,0000000000000000,0,00000000000000000000000000000000000000000000000000000000000000000000000000000000000000000000000000000000000000000000000000000000,0,0000000000000000,0,1,0,0,0,1,0,1
32,32,0,000000000000000000000000000000000000000000000000000000000000001e0000000000000000989c8e610000000000000000000f0002001400000980c0f3,0,0,0000000000000000,0,00000000000000000000000000000000000000000000000000000000000000000000000000000000000000000000000000000000000000000000000000000000,0,0000000000000000,0,1,0,0,0,1,0,1
33,33,0,000000000000000000000000000000000000000000000000a8c09664a8c0cb28a8c09664a8c0cb281140004086c6aa0100450008acfbc34b6b50924102350a00,0,0,0000000000000000,0,00000000000000000000000000000000000000000000000000000000000000000000000000000000000000000000000000000000000000000000000000000000,0,0000000000000000,0,1,0,0,0,1,0,1
34,34,0,00000000c0900000000003133000405d0000015162a56d7d9601102774830a64a8c09664a8c0cb281140004086c6aa0100450008acfbc34b6b50924102350a00,1,0,ffffffffffffffff,0,00000000000000000000000000000000000000000000000000000000000000000000000000000000000000000000000000000000000000000000000000000000,0,0000000000000000,0,1,0,0,0,1,0,1
35,35,0,0000000000000000000000000000000000000000c0e800000000031500000000000000000000000000000000c120000000001ff9000000007ff5000000000000,0,0,0000000000000000,0,00000000000000000000000000000000000000000000000000000000000000000000000000000000000000000000000000000000000000000000000000000000,0,0000000000000000,0,1,0,0,0,1,0,1
36,36,0,00000000000000007ff500000000000000000000c0e800000000031500000000000000000000000000000000c120000000001ff9000000007ff5000000000000,1,0,ffffffffffffffff,0,00000000000000000000000000000000000000000000000000000000000000000000000000000000000000000000000000000000000000000000000000000000,0,0000000000000000,0,1,0,0,0,1,0,1
37,37,0,0000000000000000000000000000000000000000000000007ffd00000000000000000000080000000000006000000000000000000000000000000000c1200000,1,0,ffffffffffffffff,0,00000000000000000000000000000000000000000000000000000000000000000000000000000000000000000000000000000000000000000000000000000000,0,0000000000000000,0,1,0,0,0,1,0,1
38,38,0,0000000000000000000000000000000000000000000000000000000064100000000000000000000000000000000000000000000000010000000002f300000000,0,0,0000000000000000,0,00000000000000000000000000000000000000000000000000000000000000000000000000000000000000000000000000000000000000000000000000000000,0,0000000000000000,0,1,0,0,0,1,0,1
39,39,0,0000000000000000000002f4000000007ffd0000000000000000000064100000000000000000000000000000000000000000000000010000000002f300000000,1,0,ffffffffffffffff,0,00000000000000000000000000000000000000000000000000000000000000000000000000000000000000000000000000000000000000000000000000000000,0,0000000000000000,0,1,0,0,0,1,0,1
40,40,0,00000000000000000000000000000000000000000000000000002f2f000000002f2f00000000000000000000000000000000000000000000ff00000000000000,0,0,0000000000000000,0,00000000000000000000000000000000000000000000000000000000000000000000000000000000000000000000000000000000000000000000000000000000,0,0000000000000000,0,1,0,0,0,1,0,1
41,41,0,00000000000000000000000000000000000000000000000000002f2f000000002f2f00000000000000000000000000000000000000000000ff00000000000000,1,0,ffffffffffffffff,0,00000000000000000000000000000000000000000000000000000000000000000000000000000000000000000000000000000000000000000000000000000000,0,0000000000000000,0,1,0,0,0,1,0,1
42,42,0,00000000000000000000000000000000000000000000000000000000000000000000000000000000000000000000000000000000000000000000000000000000,1,0,ffffffffffffffff,0,00000000000000000000000000000000000000000000000000000000000000000000000000000000000000000000000000000000000000000000000000000000,0,0000000000000000,0,1,0,0,0,1,0,1
43,43,0,0000000000000000000000000000000000000000000000000000000010bd00000000000000000000000000000000000000000000000000000000000000000000,0,0,0000000000000000,0,00000000000000000000000000000000000000000000000000000000000000000000000000000000000000000000000000000000000000000000000000000000,0,0000000000000000,0,1,0,0,0,1,0,1
44,44,0,000000000656a19c000000000000000000000000000000000000000010bd00000000000000000000000000000000000000000000000000000000000000000000,1,0,00ffffffffffffff,1,00000000000000000000000000000000000000000000000000000000000000000000000000000000000000000000000000000000000000000000000000000000,0,0000000000000000,0,1,0,0,0,1,0,1
45,45,0,000000000000000000000000000000000000000000000000000000000000001e000000000000001e000000000000001e000000000656a19c0000000000000000,0,0,0000000000000000,0,00000000000000000000000000000000000000000000000000000000000000000000000000000000000000000000000000000000000000000000000000000000,0,0000000000000000,0,1,0,0,0,1,0,1
46,46,0,000000000000000000000000000000000000000000000000000000000000001e000000000000001e000000000000001e000000000656a19c0000000000000000,0,0,0000000000000000,0,00000000000000000000000000000000000000000000000000000000000000000000000000000000000000000000000000000000000000000000000000000000,0,0000000000000000,0,1,0,0,0,1,0,1
47,47,0,000000000000000000000000000000000000000000000000000000000000001e000000000000001e000000000000001e000000000656a19c0000000000000000,0,0,0000000000000000,0,00000000000000000000000000000000000000000000000000000000000000000000000000000000000000000000000000000000000000000000000000000000,0,0000000000000000,0,1,0,0,0,1,0,1
48,48,0,000000000000000000000000000000000000000000000000000000000000001e000000000000001e000000000000001e000000000656a19c0000000000000000,0,0,0000000000000000,0,00000000000000000000000000000000000000000000000000000000000000000000000000000000000000000000000000000000000000000000000000000000,0,0000000000000000,0,1,0,0,0,1,0,1
49,49,0,000000000000000000000000000000000000000000000000000000000000001e000000000000001e000000000000001e000000000656a19c0000000000000000,0,0,0000000000000000,0,00000000000000000000000000000000000000000000000000000000000000000000000000000000000000000000000000000000000000000000000000000000,0,0000000000000000,0,1,0,0,0,1,0,1
50,50,0,000000000000000000000000000000000000000000000000000000000000001e000000000000001e000000000000001e000000000656a19c0000000000000000,0,0,0000000000000000,0,00000000000000000000000000000000000000000000000000000000000000000000000000000000000000000000000000000000000000000000000000000000,0,0000000000000000,0,1,0,0,0,1,0,1
51,51,0,000000000000000000000000000000000000000000000000000000000000001e000000000000001e000000000000001e000000000656a19c0000000000000000,0,0,0000000000000000,0,00000000000000000000000000000000000000000000000000000000000000000000000000000000000000000000000000000000000000000000000000000000,0,0000000000000000,0,1,0,0,0,1,0,1
52,52,0,000000000000000000000000000000000000000000000000000000000000001e000000000000001e000000000000001e000000000656a19c0000000000000000,0,0,0000000000000000,0,00000000000000000000000000000000000000000000000000000000000000000000000000000000000000000000000000000000000000000000000000000000,0,0000000000000000,0,1,0,0,0,1,0,1
53,53,0,000000000000000000000000000000000000000000000000000000000000001e000000000000001e000000000000001e000000000656a19c0000000000000000,0,0,0000000000000000,0,00000000000000000000000000000000000000000000000000000000000000000000000000000000000000000000000000000000000000000000000000000000,0,0000000000000000,0,1,0,0,0,1,0,1
54,54,0,000000000000000000000000000000000000000000000000000000000000001e000000000000001e000000000000001e000000000656a19c0000000000000000,0,0,0000000000000000,0,00000000000000000000000000000000000000000000000000000000000000000000000000000000000000000000000000000000000000000000000000000000,0,0000000000000000,0,1,0,0,0,1,0,1
55,55,0,000000000000000000000000000000000000000000000000000000000000001e000000000000001e000000000000001e000000000656a19c0000000000000000,0,0,0000000000000000,0,00000000000000000000000000000000000000000000000000000000000000000000000000000000000000000000000000000000000000000000000000000000,0,0000000000000000,0,1,0,0,0,1,0,1
56,56,0,000000000000000000000000000000000000000000000000000000000000001e000000000000001e000000000000001e000000000656a19c0000000000000000,0,0,0000000000000000,0,00000000000000000000000000000000000000000000000000000000000000000000000000000000000000000000000000000000000000000000000000000000,0,0000000000000000,0,1,0,0,0,1,0,1
57,57,0,000000000000000000000000000000000000000000000000000000000000001e000000000000001e000000000000001e000000000656a19c0000000000000000,0,0,0000000000000000,0,00000000c0900000000003133000405d0000015162a56d7d9601748310279664a8c00a64a8c0cb281140004086c6aa0100450008924102350a00acfbc34b6b50,0,ffffffffffffffff,0,1,0,0,0,1,0,1
58,58,0,000000000000000000000000000000000000000000000000000000000000001e000000000000001e000000000000001e000000000656a19c0000000000000000,0,0,0000000000000000,0,00000000c0900000000003133000405d0000015162a56d7d9601748310279664a8c00a64a8c0cb281140004086c6aa0100450008924102350a00acfbc34b6b50,1,ffffffffffffffff,0,1,0,0,0,1,0,1
59,59,0,000000000000000000000000000000000000000000000000000000000000001e000000000000001e000000000000001e000000000656a19c0000000000000000,0,0,0000000000000000,0,00000000000000007ff500000000000000000000c0e800000000031500000000000000000000000000000000c120000000001ff9000000007ff5000000000000,1,ffffffffffffffff,0,1,0,0,0,1,0,1
